EC-Lab ASCII FILE
Nb header lines : 70                          

Potentio Electrochemical Impedance Spectroscopy

Run on channel : 1 (SN 14323)
User : 
Electrode connection : CE to ground
Potential control : Ewe
Ewe ctrl range : min = -10,00 V, max = 10,00 V
Ewe,I filtering : 50 kHz
Safety Limits :
	Do not start on E overload
Channel : Floating
Acquisition started on : 03/26/2024 15:31:47.051
Technique started on : 03/26/2024 15:33:32.671
Loaded Setting File :  C:\Users\Operator\Documents\DCP2_rawdata\CV\2024-03-26\20240326_DCP2_JULE_Ni_W_130224_BCV_EIS_i_000.mps
Saved on :
	File : 20240326_DCP2_JULE_Ni_W_130224_BCV_EIS_i_004_03_PEIS_C01.mpr
	Directory : C:\Users\Operator\Documents\DCP2_rawdata\CV\2024-03-26\
	Host : 134.60.37.140
Device : VSP-300 (SN 0936)
Address : USB
EC-Lab for windows v11.41 (software)
Internet server v11.40 (firmware)
Command interpretor v11.41 (firmware)
Electrode material : 
Initial state : 
Electrolyte : 
Comments : 
Cable : standard
Electrode surface area : 0,001 cm²
Characteristic mass : 0,001 g
Equivalent Weight : 0,000 g/eq.
Density : 0,000 g/cm3
Volume (V) : 0,001 cm³
Record Ece
Text export
   Mode : Standard
   Time format : Elapsed
Cycle Definition : Charge/Discharge alternance
Mode                Single sine         
E (V)               1,3000              
vs.                 Ref                 
tE (h:m:s)          0:00:0,0000         
record              0                   
dI                  0,000               
unit dI             mA                  
dt (s)              0,000               
fi                  100,000             
unit fi             kHz                 
ff                  1,000               
unit ff             Hz                  
Nd                  20                  
Points              per decade          
spacing             Logarithmic         
Va (mV)             50,0                
pw                  0,10                
Na                  2                   
corr                0                   
E range min (V)     -10,000             
E range max (V)     10,000              
I Range             Auto                
Bandwidth           8                   
nc cycles           0                   
goto Ns'            0                   
nr cycles           0                   
inc. cycle          0                   

freq/Hz	Re(Z)/Ohm	-Im(Z)/Ohm	|Z|/Ohm	Phase(Z)/deg	time/s	<Ewe>/V	<I>/mA	Cs/µF	Cp/µF	cycle number	I Range	|Ewe|/V	|I|/A	Ns	(Q-Qo)/mA.h	<Ece>/V	|Ece|/V	Phase(Zce)/deg	|Zce|/Ohm	Re(Zce)/Ohm	-Im(Zce)/Ohm	Phase(Zwe-ce)/deg	|Zwe-ce|/Ohm	Re(Zwe-ce)/Ohm	-Im(Zwe-ce)/Ohm	Re(Y)/Ohm-1	Im(Y)/Ohm-1	|Y|/Ohm-1	Phase(Y)/deg	dq/mA.h	
1,0000371E+005	1,2813235E+002	6,1714854E+000	1,2828090E+002	-2,7575157E+000	1,056203414966294E+002	1,2994691E+000	-2,1373032E-001	2,5787801E-001	5,9685623E-004	1,000000000000000E+000	39	4,9479168E-002	3,8570957E-004	0	-5,568611791630651E-005	1,2732947E+000	5,2799400E-002	-4,6377568E+000	1,3688901E+002	1,3644081E+002	1,1068266E+001	-3,7281578E+000	2,6513428E+002	2,6457318E+002	1,7239752E+001	7,7863666E-003	3,7502975E-004	7,7953930E-003	2,7575157E+000	-5,568611791630651E-005
8,9129305E+004	1,2809033E+002	5,4347596E+000	1,2820558E+002	-2,4295521E+000	1,059973571145383E+002	1,2995017E+000	-1,6692027E-001	3,2856348E-001	5,9042685E-004	1,000000000000000E+000	39	5,0556429E-002	3,9433877E-004	0	-7,403374067120118E-005	1,2865988E+000	5,4029010E-002	-4,0994434E+000	1,3701166E+002	1,3666112E+002	9,7946558E+000	-3,2922225E+000	2,6518912E+002	2,6475146E+002	1,5229416E+001	7,7929609E-003	3,3064844E-004	7,7999723E-003	2,4295521E+000	-1,834762275489468E-005
7,9433273E+004	1,2796178E+002	4,8102617E+000	1,2805215E+002	-2,1528146E+000	1,063743686524394E+002	1,2994782E+000	-1,3879450E-001	4,1653258E-001	5,8777700E-004	1,000000000000000E+000	39	5,0660398E-002	3,9562318E-004	0	-9,002329316459105E-005	1,3102685E+000	5,4140903E-002	-3,6586902E+000	1,3684967E+002	1,3657076E+002	8,7327614E+000	-2,9307594E+000	2,6487897E+002	2,6453253E+002	1,3543023E+001	7,8038061E-003	2,9335596E-004	7,8093181E-003	2,1528146E+000	-1,598955249338986E-005
7,0794984E+004	1,2801530E+002	4,2963614E+000	1,2808739E+002	-1,9221998E+000	1,067513412569824E+002	1,2994723E+000	-1,1953826E-001	5,2325916E-001	5,8871583E-004	1,000000000000000E+000	39	5,0669808E-002	3,9558782E-004	0	-1,034649366704560E-004	1,3272212E+000	5,4199155E-002	-3,2527554E+000	1,3700916E+002	1,3678842E+002	7,7740088E+000	-2,6098685E+000	2,6507867E+002	2,6480371E+002	1,2070370E+001	7,8027770E-003	2,6187141E-004	7,8071700E-003	1,9221998E+000	-1,344164350586491E-005
6,3093828E+004	1,2793525E+002	3,7642450E+000	1,2799062E+002	-1,6853303E+000	1,071283328482241E+002	1,2994635E+000	-1,0527720E-001	6,7012429E-001	5,7963538E-004	1,000000000000000E+000	39	5,0663110E-002	3,9583456E-004	0	-1,140709093950314E-004	1,3459675E+000	5,4203648E-002	-2,8911080E+000	1,3693510E+002	1,3676082E+002	6,9067254E+000	-2,3085749E+000	2,6491107E+002	2,6469608E+002	1,0670971E+001	7,8096930E-003	2,2978497E-004	7,8130728E-003	1,6853303E+000	-1,060597272457542E-005
5,6237012E+004	1,2796921E+002	3,3082983E+000	1,2801196E+002	-1,4808978E+000	1,075053392661212E+002	1,2994655E+000	-9,4197370E-002	8,5544723E-001	5,7134900E-004	1,000000000000000E+000	39	5,0685205E-002	3,9594117E-004	0	-1,235914602399203E-004	1,3485475E+000	5,4258306E-002	-2,5741062E+000	1,3703629E+002	1,3689801E+002	6,1545076E+000	-2,0461133E+000	2,6503619E+002	2,6486722E+002	9,4628057E+000	7,8091607E-003	2,0188476E-004	7,8117698E-003	1,4808978E+000	-9,520550844888925E-006
5,0122477E+004	1,2788870E+002	2,8918765E+000	1,2792139E+002	-1,2953770E+000	1,078823559774028E+002	1,2994599E+000	-8,5171968E-002	1,0980140E+000	5,6115258E-004	1,000000000000000E+000	39	5,0677698E-002	3,9616280E-004	0	-1,331633745145033E-004	0,0000000E+000	5,4276101E-002	-2,3096883E+000	1,3700453E+002	1,3689323E+002	5,5213857E+000	-1,8199215E+000	2,6491556E+002	2,6478192E+002	8,4132624E+000	7,8153033E-003	1,7672313E-004	7,8173010E-003	1,2953770E+000	-9,571914274583037E-006
4,4666715E+004	1,2790127E+002	2,5659099E+000	1,2792700E+002	-1,1492934E+000	1,082593493552704E+002	1,2994722E+000	-7,7475451E-002	1,3886561E+000	5,5866706E-004	1,000000000000000E+000	39	5,0671652E-002	3,9609818E-004	0	-1,421411741414405E-004	0,0000000E+000	5,4282047E-002	-2,0607131E+000	1,3704190E+002	1,3695328E+002	4,9278178E+000	-1,6206799E+000	2,6496054E+002	2,6485455E+002	7,4937277E+000	7,8153852E-003	1,5678949E-004	7,8169582E-003	1,1492934E+000	-8,977799626937139E-006
3,9814063E+004	1,2785321E+002	2,2424190E+000	1,2787287E+002	-1,0048083E+000	1,086363643065270E+002	1,2994651E+000	-7,1029112E-002	1,7826532E+000	5,4820575E-004	1,000000000000000E+000	39	5,0664000E-002	3,9620601E-004	0	-1,492697041221691E-004	0,0000000E+000	5,4267164E-002	-1,8261063E+000	1,3696704E+002	1,3689748E+002	4,3646154E+000	-1,4295588E+000	2,6483310E+002	2,6475067E+002	6,6070347E+000	7,8190649E-003	1,3713866E-004	7,8202672E-003	1,0048083E+000	-7,128529980728591E-006
3,5481000E+004	1,2778676E+002	1,9759799E+000	1,2780203E+002	-8,8590002E-001	1,090133284044277E+002	1,2994782E+000	-6,5805376E-002	2,2700832E+000	5,4266432E-004	1,000000000000000E+000	39	5,0638169E-002	3,9622351E-004	0	-1,556049721738382E-004	0,0000000E+000	5,4311328E-002	-1,6251457E+000	1,3707245E+002	1,3701732E+002	3,8874211E+000	-1,2684594E+000	2,6486899E+002	2,6480408E+002	5,8634009E+000	7,8236666E-003	1,2097817E-004	7,8246016E-003	8,8590002E-001	-6,335268051669104E-006
3,1621143E+004	1,2774937E+002	1,7631804E+000	1,2776154E+002	-7,9073876E-001	1,093903728489822E+002	1,2994578E+000	-6,1010793E-002	2,8546038E+000	5,4367463E-004	1,000000000000000E+000	39	5,0641950E-002	3,9637869E-004	0	-1,619200664958318E-004	0,0000000E+000	5,4329023E-002	-1,4372816E+000	1,3706343E+002	1,3702031E+002	3,4379163E+000	-1,1253651E+000	2,6482077E+002	2,6476968E+002	5,2010965E+000	7,8263367E-003	1,0801809E-004	7,8270817E-003	7,9073876E-001	-6,315094321993666E-006
2,8188094E+004	1,2773302E+002	1,5581872E+000	1,2774253E+002	-6,9890404E-001	1,097673475335760E+002	1,2994647E+000	-5,6793772E-002	3,6235542E+000	5,3914182E-004	1,000000000000000E+000	39	5,0623126E-002	3,9629030E-004	0	-1,686312241509570E-004	0,0000000E+000	5,4333009E-002	-1,2927161E+000	1,3710406E+002	1,3706917E+002	3,0931005E+000	-1,0063050E+000	2,6484302E+002	2,6480219E+002	4,6512880E+000	7,8276647E-003	9,5487972E-005	7,8282468E-003	6,9890404E-001	-6,711157655125131E-006
2,5116906E+004	1,2769180E+002	1,3856256E+000	1,2769931E+002	-6,2171090E-001	1,101443433381792E+002	1,2994578E+000	-5,3078994E-002	4,5730729E+000	5,3842197E-004	1,000000000000000E+000	39	5,0613970E-002	3,9635273E-004	0	-1,746605263011224E-004	0,0000000E+000	5,4298885E-002	-1,1695575E+000	1,3699637E+002	1,3696783E+002	2,7962615E+000	-9,0525532E-001	2,6469269E+002	2,6465964E+002	4,1818871E+000	7,8304345E-003	8,4970612E-005	7,8308955E-003	6,2171090E-001	-6,029302150165462E-006
2,2389031E+004	1,2762383E+002	1,2686689E+000	1,2763013E+002	-5,6954080E-001	1,105213693293917E+002	1,2994653E+000	-4,9753472E-002	5,6032052E+000	5,5363902E-004	1,000000000000000E+000	39	5,0579369E-002	3,9629647E-004	0	-1,802466238895625E-004	0,0000000E+000	5,4260977E-002	-1,0229130E+000	1,3692017E+002	1,3689835E+002	2,4443331E+000	-8,0418736E-001	2,6454822E+002	2,6452216E+002	3,7130020E+000	7,8347530E-003	7,7882854E-005	7,8351405E-003	5,6954080E-001	-5,586097588440093E-006
1,9948781E+004	1,2760365E+002	1,1158488E+000	1,2760853E+002	-5,0101852E-001	1,108983256939391E+002	1,2994642E+000	-4,6605811E-002	7,1498742E+000	5,4670079E-004	1,000000000000000E+000	39	5,0553605E-002	3,9616166E-004	0	-1,857760956010995E-004	0,0000000E+000	5,4305792E-002	-9,1288799E-001	1,3707988E+002	1,3706248E+002	2,1839876E+000	-7,1432221E-001	2,6468671E+002	2,6466614E+002	3,2998364E+000	7,8361668E-003	6,8524503E-005	7,8364667E-003	5,0101852E-001	-5,529471711536931E-006
1,7786891E+004	1,2748969E+002	1,0192155E+000	1,2749377E+002	-4,5804098E-001	1,112753627252241E+002	1,2994722E+000	-4,3971941E-002	8,7791824E+000	5,6105858E-004	1,000000000000000E+000	39	5,0516047E-002	3,9622365E-004	0	-1,912423458881903E-004	0,0000000E+000	5,4264288E-002	-8,3560097E-001	1,3695369E+002	1,3693913E+002	1,9972602E+000	-6,5357405E-001	2,6444604E+002	2,6442883E+002	3,0164757E+000	7,8432700E-003	6,2702973E-005	7,8435205E-003	4,5804098E-001	-5,466250287090808E-006
1,5847683E+004	1,2751515E+002	9,6283078E-001	1,2751878E+002	-4,3261600E-001	1,115303403906582E+002	1,2994567E+000	-4,2352624E-002	1,0430483E+001	5,9464260E-004	1,000000000000000E+000	39	5,4735154E-002	4,2923208E-004	0	-1,945754773090658E-004	0,0000000E+000	5,8789324E-002	-7,5033927E-001	1,3696396E+002	1,3695221E+002	1,7936138E+000	-5,9715092E-001	2,6448172E+002	2,6446735E+002	2,7564445E+000	7,8417584E-003	5,9210899E-005	7,8419819E-003	4,3261600E-001	-3,333131420875542E-006
1,4121883E+004	1,2746139E+002	8,8921189E-001	1,2746449E+002	-3,9970741E-001	1,119073484618857E+002	1,2994651E+000	-3,9941724E-002	1,2674250E+001	6,1681418E-004	1,000000000000000E+000	39	5,0877288E-002	3,9914870E-004	0	-1,997677011899941E-004	0,0000000E+000	5,4656204E-002	-6,8182147E-001	1,3693193E+002	1,3692224E+002	1,6294554E+000	-5,4581529E-001	2,6439563E+002	2,6438364E+002	2,5186672E+000	7,8451307E-003	5,4730172E-005	7,8453217E-003	3,9970741E-001	-5,192223880928309E-006
1,2590930E+004	1,2747994E+002	8,7879056E-001	1,2748297E+002	-3,9496562E-001	1,121623366606946E+002	1,2994515E+000	-3,8612485E-002	1,4383911E+001	6,8350765E-004	1,000000000000000E+000	39	5,4275006E-002	4,2574317E-004	0	-2,022147178323713E-004	0,0000000E+000	5,8317900E-002	-6,2523121E-001	1,3697906E+002	1,3697092E+002	1,4947329E+000	-5,1423246E-001	2,6446152E+002	2,6445087E+002	2,3735235E+000	7,8439983E-003	5,4073069E-005	7,8441845E-003	3,9496562E-001	-2,447016642377186E-006
1,1217713E+004	1,2744716E+002	8,6508256E-001	1,2745010E+002	-3,8890487E-001	1,125393449452531E+002	1,2994471E+000	-3,6675490E-002	1,6400543E+001	7,5560191E-004	1,000000000000000E+000	39	5,0763216E-002	3,9829875E-004	0	-2,058778299630002E-004	0,0000000E+000	5,4510482E-002	-5,7751805E-001	1,3685828E+002	1,3685132E+002	1,3794521E+000	-4,8656839E-001	2,6430798E+002	2,6429846E+002	2,2445347E+000	7,8460276E-003	5,3257067E-005	7,8462083E-003	3,8890487E-001	-3,663112130628888E-006
1,0002226E+004	1,2744637E+002	8,3115393E-001	1,2744907E+002	-3,7365472E-001	1,127943443706899E+002	1,2994524E+000	-3,5577051E-002	1,9144411E+001	8,1420090E-004	1,000000000000000E+000	39	5,3143628E-002	4,1697931E-004	0	-2,085708563218876E-004	0,0000000E+000	5,7087652E-002	-5,1633960E-001	1,3690764E+002	1,3690208E+002	1,2337712E+000	-4,4754979E-001	2,6435651E+002	2,6434845E+002	2,0649252E+000	7,8461049E-003	5,1169140E-005	7,8462716E-003	3,7365472E-001	-2,693026358887440E-006
8,9166387E+003	1,2743942E+002	8,4950924E-001	1,2744225E+002	-3,8192713E-001	1,131713461752806E+002	1,2995068E+000	-3,3459965E-002	2,1011200E+001	9,3359855E-004	1,000000000000000E+000	39	5,1397026E-002	4,0329658E-004	0	-2,124966440530035E-004	0,0000000E+000	5,5236142E-002	-4,8126084E-001	1,3696159E+002	1,3695676E+002	1,1504072E+000	-4,3338215E-001	2,6440375E+002	2,6439618E+002	1,9999164E+000	7,8465166E-003	5,2304757E-005	7,8466907E-003	3,8192713E-001	-3,925787731115824E-006
7,9424009E+003	1,2743003E+002	8,3630055E-001	1,2743278E+002	-3,7601656E-001	1,134263710940431E+002	1,2995105E+000	-3,2373458E-002	2,3961054E+001	1,0319732E-003	1,000000000000000E+000	39	5,4269597E-002	4,2586843E-004	0	-2,145569020282063E-004	0,0000000E+000	5,8337029E-002	-4,6736163E-001	1,3698369E+002	1,3697913E+002	1,1173635E+000	-4,2333886E-001	2,6441638E+002	2,6440915E+002	1,9536641E+000	7,8471061E-003	5,1499152E-005	7,8472747E-003	3,7601656E-001	-2,060257975202876E-006
7,0794971E+003	1,2746146E+002	8,5020632E-001	1,2746429E+002	-3,8217443E-001	1,138033724719717E+002	1,2995431E+000	-3,0926771E-002	2,6441946E+001	1,1764269E-003	1,000000000000000E+000	39	5,0721824E-002	3,9792966E-004	0	-2,178192653108757E-004	0,0000000E+000	5,4516837E-002	-4,2403722E-001	1,3700119E+002	1,3699744E+002	1,0139154E+000	-4,0386063E-001	2,6446545E+002	2,6445889E+002	1,8641217E+000	7,8451606E-003	5,2329582E-005	7,8453347E-003	3,8217443E-001	-3,262363282669352E-006
6,3093828E+003	1,2745025E+002	8,7586838E-001	1,2745325E+002	-3,9374402E-001	1,140583252306969E+002	1,2995216E+000	-3,0046454E-002	2,8800129E+001	1,3600981E-003	1,000000000000000E+000	39	5,2870631E-002	4,1482371E-004	0	-2,197194446727068E-004	0,0000000E+000	5,6831822E-002	-4,1376728E-001	1,3700235E+002	1,3699878E+002	9,8936778E-001	-4,0411714E-001	2,6445563E+002	2,6444904E+002	1,8652362E+000	7,8458283E-003	5,3918397E-005	7,8460136E-003	3,9374402E-001	-1,900179361831152E-006
5,6227744E+003	1,2749912E+002	9,2271292E-001	1,2750246E+002	-4,1464311E-001	1,143133325495000E+002	1,2995437E+000	-2,9097904E-002	3,0676294E+001	1,6065673E-003	1,000000000000000E+000	39	5,4783989E-002	4,2967004E-004	0	-2,219165628309432E-004	0,0000000E+000	5,8866460E-002	-3,9168009E-001	1,3700388E+002	1,3700067E+002	9,3656588E-001	-4,0274918E-001	2,6450632E+002	2,6449979E+002	1,8592788E+000	7,8427801E-003	5,6758312E-005	7,8429859E-003	4,1464311E-001	-2,197118158236375E-006
5,0103887E+003	1,2758302E+002	9,5822114E-001	1,2758662E+002	-4,3031585E-001	1,146903688607563E+002	1,2995245E+000	-2,7816765E-002	3,3149956E+001	1,8698390E-003	1,000000000000000E+000	39	5,0654799E-002	3,9702281E-004	0	-2,255421854539707E-004	0,0000000E+000	5,4417495E-002	-3,7858358E-001	1,3706390E+002	1,3706091E+002	9,0564728E-001	-4,0352347E-001	2,6465048E+002	2,6464392E+002	1,8638685E+000	7,8375917E-003	5,8864774E-005	7,8378124E-003	4,3031585E-001	-3,625622623027483E-006
4,4655278E+003	1,2754626E+002	1,0260065E+000	1,2755039E+002	-4,6088827E-001	1,149608860469598E+002	1,2995391E+000	-2,7157180E-002	3,4737396E+001	2,2476767E-003	1,000000000000000E+000	39	5,1935926E-002	4,0717967E-004	0	-2,274431527654938E-004	0,0000000E+000	5,5798396E-002	-3,6144644E-001	1,3703630E+002	1,3703357E+002	8,6447823E-001	-4,0938476E-001	2,6458658E+002	2,6457983E+002	1,8904847E+000	7,8397850E-003	6,3064726E-005	7,8400383E-003	4,6088827E-001	-1,900967311523137E-006
3,9796606E+003	1,2756309E+002	1,0594444E+000	1,2756749E+002	-4,7584531E-001	1,152599775011477E+002	1,2995262E+000	-2,6207138E-002	3,7748173E+001	2,6035879E-003	1,000000000000000E+000	39	5,3061347E-002	4,1594726E-004	0	-2,296226237118406E-004	0,0000000E+000	5,6974903E-002	-3,7328896E-001	1,3697627E+002	1,3697336E+002	8,9241076E-001	-4,2274341E-001	2,6454364E+002	2,6453644E+002	1,9518552E+000	7,8387177E-003	6,5102569E-005	7,8389877E-003	4,7584531E-001	-2,179470946346747E-006
3,5480037E+003	1,2761131E+002	1,1418591E+000	1,2761642E+002	-5,1266581E-001	1,155917500502546E+002	1,2995189E+000	-2,5286181E-002	3,9284714E+001	3,1451075E-003	1,000000000000000E+000	39	5,3984106E-002	4,2301850E-004	0	-2,322361081117932E-004	0,0000000E+000	5,7990037E-002	-3,6415190E-001	1,3708629E+002	1,3708353E+002	8,7126660E-001	-4,3575230E-001	2,6470248E+002	2,6469482E+002	2,0131257E+000	7,8356685E-003	7,0113136E-005	7,8359824E-003	5,1266581E-001	-2,613484399952655E-006
3,1630769E+003	1,2765075E+002	1,2552912E+000	1,2765692E+002	-5,6341678E-001	1,159594948144149E+002	1,2995170E+000	-2,4400270E-002	4,0083523E+001	3,8758426E-003	1,000000000000000E+000	39	5,4773830E-002	4,2907058E-004	0	-2,351056789498737E-004	0,0000000E+000	5,8833618E-002	-3,8339108E-001	1,3711874E+002	1,3711568E+002	9,1751456E-001	-4,7018731E-001	2,6477533E+002	2,6476642E+002	2,1728058E+000	7,8331167E-003	7,7029268E-005	7,8334957E-003	5,6341678E-001	-2,869570838080515E-006
2,8175339E+003	1,2766634E+002	1,3881385E+000	1,2767388E+002	-6,2296253E-001	1,165654719365266E+002	1,2995307E+000	-2,2988630E-002	4,0692856E+001	4,8103831E-003	1,000000000000000E+000	39	5,0557852E-002	3,9599213E-004	0	-2,392872462802528E-004	0,0000000E+000	5,4317620E-002	-3,9694139E-001	1,3716843E+002	1,3716513E+002	9,5028621E-001	-5,0590050E-001	2,6484180E+002	2,6483148E+002	2,3384247E+000	7,8319926E-003	8,5158630E-005	7,8324554E-003	6,2296253E-001	-4,181567330379039E-006
2,5124104E+003	1,2770112E+002	1,5041190E+000	1,2770998E+002	-6,7482328E-001	1,170114778777133E+002	1,2995541E+000	-2,2101976E-002	4,2116020E+001	5,8420072E-003	1,000000000000000E+000	39	5,1043920E-002	3,9968625E-004	0	-2,420372415592331E-004	0,0000000E+000	5,4832406E-002	-3,9972281E-001	1,3718863E+002	1,3718529E+002	9,5708585E-001	-5,3235120E-001	2,6489786E+002	2,6488641E+002	2,4612050E+000	7,8296987E-003	9,2221577E-005	7,8302417E-003	6,7482328E-001	-2,749995278980349E-006
2,2492781E+003	1,2776064E+002	1,6008939E+000	1,2777067E+002	-7,1790236E-001	1,174577778188977E+002	1,2995527E+000	-2,1073634E-002	4,4199203E+001	6,9386852E-003	1,000000000000000E+000	39	5,1440187E-002	4,0259777E-004	0	-2,445419498545299E-004	0,0000000E+000	5,5200212E-002	-4,3221009E-001	1,3711008E+002	1,3710617E+002	1,0342786E+000	-5,7001960E-001	2,6487994E+002	2,6486682E+002	2,6351724E+000	7,8259073E-003	9,8061879E-005	7,8265220E-003	7,1790236E-001	-2,504708295296724E-006
1,9956381E+003	1,2784738E+002	1,7959275E+000	1,2785999E+002	-8,0480570E-001	1,179036264800816E+002	1,2995392E+000	-2,0276835E-002	4,4406807E+001	8,7610828E-003	1,000000000000000E+000	39	5,1760215E-002	4,0481947E-004	0	-2,473199561849922E-004	0,0000000E+000	5,5551700E-002	-4,6038479E-001	1,3722586E+002	1,3722144E+002	1,1026295E+000	-6,2651080E-001	2,6508466E+002	2,6506882E+002	2,8985572E+000	7,8202840E-003	1,0985491E-004	7,8210551E-003	8,0480570E-001	-2,778006330462351E-006
1,7782897E+003	1,2788450E+002	1,9532542E+000	1,2789941E+002	-8,7504363E-001	1,183499085278891E+002	1,2995417E+000	-1,9431571E-002	4,5820396E+001	1,0686594E-002	1,000000000000000E+000	39	5,2016553E-002	4,0669891E-004	0	-2,498384216640989E-004	0,0000000E+000	5,5818520E-002	-4,2954805E-001	1,3724777E+002	1,3724391E+002	1,0289408E+000	-6,4444232E-001	2,6514520E+002	2,6512842E+002	2,9821949E+000	7,8177322E-003	1,1940476E-004	7,8186439E-003	8,7504363E-001	-2,518465479106667E-006
