EC-Lab ASCII FILE
Nb header lines : 70                          

Potentio Electrochemical Impedance Spectroscopy

Run on channel : 1 (SN 14323)
User : 
Electrode connection : CE to ground
Potential control : Ewe
Ewe ctrl range : min = -10,00 V, max = 10,00 V
Ewe,I filtering : 50 kHz
Safety Limits :
	Do not start on E overload
Channel : Floating
Acquisition started on : 03/26/2024 15:31:47.051
Technique started on : 03/26/2024 15:31:48.344
Loaded Setting File :  C:\Users\Operator\Documents\DCP2_rawdata\CV\2024-03-26\20240326_DCP2_JULE_Ni_W_130224_BCV_EIS_i_000.mps
Saved on :
	File : 20240326_DCP2_JULE_Ni_W_130224_BCV_EIS_i_004_01_PEIS_C01.mpr
	Directory : C:\Users\Operator\Documents\DCP2_rawdata\CV\2024-03-26\
	Host : 134.60.37.140
Device : VSP-300 (SN 0936)
Address : USB
EC-Lab for windows v11.41 (software)
Internet server v11.40 (firmware)
Command interpretor v11.41 (firmware)
Electrode material : 
Initial state : 
Electrolyte : 
Comments : 
Cable : standard
Electrode surface area : 0,001 cm²
Characteristic mass : 0,001 g
Equivalent Weight : 0,000 g/eq.
Density : 0,000 g/cm3
Volume (V) : 0,001 cm³
Record Ece
Text export
   Mode : Standard
   Time format : Elapsed
Cycle Definition : Charge/Discharge alternance
Mode                Single sine         
E (V)               1,5000              
vs.                 Ref                 
tE (h:m:s)          0:00:0,0000         
record              0                   
dI                  0,000               
unit dI             mA                  
dt (s)              0,000               
fi                  100,000             
unit fi             kHz                 
ff                  1,000               
unit ff             Hz                  
Nd                  20                  
Points              per decade          
spacing             Logarithmic         
Va (mV)             50,0                
pw                  0,10                
Na                  2                   
corr                0                   
E range min (V)     -10,000             
E range max (V)     10,000              
I Range             Auto                
Bandwidth           8                   
nc cycles           0                   
goto Ns'            0                   
nr cycles           0                   
inc. cycle          0                   

freq/Hz	Re(Z)/Ohm	-Im(Z)/Ohm	|Z|/Ohm	Phase(Z)/deg	time/s	<Ewe>/V	<I>/mA	Cs/µF	Cp/µF	cycle number	I Range	|Ewe|/V	|I|/A	Ns	(Q-Qo)/mA.h	<Ece>/V	|Ece|/V	Phase(Zce)/deg	|Zce|/Ohm	Re(Zce)/Ohm	-Im(Zce)/Ohm	Phase(Zwe-ce)/deg	|Zwe-ce|/Ohm	Re(Zwe-ce)/Ohm	-Im(Zwe-ce)/Ohm	Re(Y)/Ohm-1	Im(Y)/Ohm-1	|Y|/Ohm-1	Phase(Y)/deg	dq/mA.h	
1,0000371E+005	1,2771152E+002	6,1239581E+000	1,2785827E+002	-2,7453151E+000	1,292525661381660E+000	1,4994906E+000	3,7831161E-002	2,5987935E-001	5,9618161E-004	1,000000000000000E+000	39	4,9533181E-002	3,8740694E-004	0	1,568984265144293E-005	9,4632798E-001	5,2926905E-002	-4,6956530E+000	1,3661838E+002	1,3615984E+002	1,1183976E+001	-3,7527871E+000	2,6443839E+002	2,6387137E+002	1,7307934E+001	7,8121843E-003	3,7460585E-004	7,8211604E-003	2,7453151E+000	1,568984265144293E-005
8,9129305E+004	1,2777981E+002	5,4041533E+000	1,2789404E+002	-2,4217501E+000	1,669559999281773E+000	1,4994979E+000	3,5612289E-002	3,3042428E-001	5,8996561E-004	1,000000000000000E+000	39	5,0581086E-002	3,9549216E-004	0	1,991448599145386E-005	9,0192735E-001	5,4059651E-002	-4,1715479E+000	1,3668956E+002	1,3632744E+002	9,9432001E+000	-3,3257353E+000	2,6455280E+002	2,6410724E+002	1,5347353E+001	7,8119892E-003	3,3039012E-004	7,8189727E-003	2,4217501E+000	4,224643340010922E-006
7,9433273E+004	1,2779106E+002	4,7882409E+000	1,2788074E+002	-2,1458285E+000	2,046557270485209E+000	1,4994841E+000	3,4346066E-002	4,1844818E-001	5,8665586E-004	1,000000000000000E+000	39	5,0689977E-002	3,9638477E-004	0	2,324656170835968E-005	0,0000000E+000	5,4163378E-002	-3,7230635E+000	1,3664343E+002	1,3635506E+002	8,8728046E+000	-2,9605715E+000	2,6449915E+002	2,6414612E+002	1,3661045E+001	7,8143021E-003	2,9279638E-004	7,8197857E-003	2,1458285E+000	3,332075716905820E-006
7,0794984E+004	1,2783609E+002	4,2282896E+000	1,2790600E+002	-1,8944170E+000	2,423552035092143E+000	1,4994874E+000	3,3732712E-002	5,3168321E-001	5,8103265E-004	1,000000000000000E+000	39	5,0694976E-002	3,9634557E-004	0	2,659168227816958E-005	0,0000000E+000	5,4194473E-002	-3,2646689E+000	1,3673541E+002	1,3651350E+002	7,7868619E+000	-2,6024022E+000	2,6462253E+002	2,6434961E+002	1,2015152E+001	7,8139687E-003	2,5845380E-004	7,8182416E-003	1,8944170E+000	3,345120569809900E-006
6,3093828E+004	1,2776785E+002	3,7992733E+000	1,2782433E+002	-1,7032312E+000	2,800537946313852E+000	1,4994878E+000	3,3433683E-002	6,6394597E-001	5,8655231E-004	1,000000000000000E+000	39	5,0677966E-002	3,9646574E-004	0	3,101758577633882E-005	0,0000000E+000	5,4194063E-002	-2,9345999E+000	1,3669293E+002	1,3651367E+002	6,9981370E+000	-2,3395588E+000	2,6450201E+002	2,6428152E+002	1,0797410E+001	7,8197811E-003	2,3252706E-004	7,8232372E-003	1,7032312E+000	4,425903498169241E-006
5,6237012E+004	1,2786796E+002	3,3213859E+000	1,2791109E+002	-1,4879303E+000	3,177533537585987E+000	1,4994891E+000	3,3209592E-002	8,5207641E-001	5,7451433E-004	1,000000000000000E+000	39	5,0693903E-002	3,9632141E-004	0	3,370161686057772E-005	0,0000000E+000	5,4186113E-002	-2,6133406E+000	1,3672266E+002	1,3658046E+002	6,2339492E+000	-2,0693724E+000	2,6462100E+002	2,6444843E+002	9,5553350E+000	7,8152949E-003	2,0300323E-004	7,8179305E-003	1,4879303E+000	2,684031084238899E-006
5,0122477E+004	1,2784801E+002	2,9154286E+000	1,2788125E+002	-1,3063388E+000	3,554532808804652E+000	1,4994977E+000	3,3023164E-002	1,0891438E+000	5,6607800E-004	1,000000000000000E+000	39	5,0688151E-002	3,9636891E-004	0	3,674446710412869E-005	0,0000000E+000	5,4191045E-002	-2,3202715E+000	1,3671870E+002	1,3660661E+002	5,5350995E+000	-1,8302380E+000	2,6458960E+002	2,6445462E+002	8,4505281E+000	7,8177229E-003	1,7827429E-004	7,8197550E-003	1,3063388E+000	3,042850243550976E-006
4,4666715E+004	1,2783157E+002	2,5606472E+000	1,2785722E+002	-1,1475620E+000	3,931555493356427E+000	1,4994771E+000	3,2824058E-002	1,3915101E+000	5,5813004E-004	1,000000000000000E+000	39	5,0670836E-002	3,9630799E-004	0	3,950808017238806E-005	0,0000000E+000	5,4219961E-002	-2,0481024E+000	1,3681268E+002	1,3672528E+002	4,8894825E+000	-1,6130680E+000	2,6466174E+002	2,6455685E+002	7,4501295E+000	7,8196563E-003	1,5663877E-004	7,8212246E-003	1,1475620E+000	2,763613068259374E-006
3,9814063E+004	1,2778695E+002	2,2699518E+000	1,2780711E+002	-1,0176703E+000	4,308550204586936E+000	1,4994913E+000	3,2714810E-002	1,7610310E+000	5,5550796E-004	1,000000000000000E+000	39	5,0652701E-002	3,9632147E-004	0	4,333836978296879E-005	0,0000000E+000	5,4168999E-002	-1,8387283E+000	1,3667944E+002	1,3660907E+002	4,3855453E+000	-1,4419709E+000	2,6447977E+002	2,6439603E+002	6,6554971E+000	7,8230575E-003	1,3896539E-004	7,8242915E-003	1,0176703E+000	3,830289610580725E-006
3,5481000E+004	1,2777445E+002	1,9018114E+000	1,2778860E+002	-8,5273474E-001	4,685569075838430E+000	1,4994737E+000	3,2699898E-002	2,3586137E+000	5,2240514E-004	1,000000000000000E+000	39	5,0653290E-002	3,9638346E-004	0	4,711102774343291E-005	0,0000000E+000	5,4168485E-002	-1,6045909E+000	1,3665677E+002	1,3660318E+002	3,8266265E+000	-1,2412698E+000	2,6443967E+002	2,6437762E+002	5,7284379E+000	7,8245569E-003	1,1646171E-004	7,8254240E-003	8,5273474E-001	3,772657960464124E-006
3,1621143E+004	1,2777127E+002	1,6945534E+000	1,2778251E+002	-7,5983483E-001	5,062520800420316E+000	1,4994668E+000	3,2506384E-002	2,9702110E+000	5,2234204E-004	1,000000000000000E+000	39	5,0655387E-002	3,9641879E-004	0	5,062352471087554E-005	0,0000000E+000	5,4213986E-002	-1,4315734E+000	1,3675937E+002	1,3671669E+002	3,4166689E+000	-1,1071014E+000	2,6453735E+002	2,6448798E+002	5,1112223E+000	7,8251092E-003	1,0377970E-004	7,8257974E-003	7,5983483E-001	3,512496967442631E-006
2,8188094E+004	1,2777224E+002	1,5286680E+000	1,2778139E+002	-6,8545443E-001	5,439520684973104E+000	1,4994684E+000	3,2510113E-002	3,6935267E+000	5,2860641E-004	1,000000000000000E+000	39	5,0634731E-002	3,9626061E-004	0	5,389994856967112E-005	0,0000000E+000	5,4175865E-002	-1,2712861E+000	1,3671776E+002	1,3668411E+002	3,0332623E+000	-9,8826677E-001	2,6449570E+002	2,6445636E+002	4,5619302E+000	7,8253066E-003	9,3622024E-005	7,8258663E-003	6,8545443E-001	3,276423858795576E-006
2,5116906E+004	1,2770666E+002	1,3226156E+000	1,2771351E+002	-5,9337223E-001	5,816517556231702E+000	1,4994835E+000	3,2417271E-002	4,7909355E+000	5,1382353E-004	1,000000000000000E+000	39	5,0601065E-002	3,9620762E-004	0	5,677880859519549E-005	0,0000000E+000	5,4163229E-002	-1,1189929E+000	1,3670416E+002	1,3667809E+002	2,6696777E+000	-8,6511868E-001	2,6441489E+002	2,6438474E+002	3,9922934E+000	7,8296056E-003	8,1088634E-005	7,8300256E-003	5,9337223E-001	2,878860025524370E-006
2,2389031E+004	1,2772640E+002	1,1862816E+000	1,2773191E+002	-5,3212935E-001	6,193541334156180E+000	1,4994863E+000	3,2321077E-002	5,9923482E+000	5,1686104E-004	1,000000000000000E+000	39	5,0604880E-002	3,9618040E-004	0	6,105099655879732E-005	0,0000000E+000	5,4165743E-002	-9,9286652E-001	1,3671989E+002	1,3669937E+002	2,3690717E+000	-7,7032751E-001	2,6444968E+002	2,6442578E+002	3,5553532E+000	7,8285588E-003	7,2709125E-005	7,8288969E-003	5,3212935E-001	4,272187963601832E-006
1,9948781E+004	1,2765285E+002	1,0464730E+000	1,2765714E+002	-4,6968907E-001	6,570555218699155E+000	1,4994768E+000	3,2331143E-002	7,6238742E+000	5,1232037E-004	1,000000000000000E+000	39	5,0547190E-002	3,9596055E-004	0	6,420081499840793E-005	0,0000000E+000	5,4093149E-002	-8,8688225E-001	1,3661247E+002	1,3659610E+002	2,1145420E+000	-6,8535435E-001	2,6426788E+002	2,6424896E+002	3,1610150E+000	7,8332191E-003	6,4215201E-005	7,8334827E-003	4,6968907E-001	3,149818439610605E-006
1,7786891E+004	1,2757942E+002	9,1043055E-001	1,2758267E+002	-4,0886644E-001	6,947549903270556E+000	1,4994966E+000	3,2243516E-002	9,8281841E+000	5,0047634E-004	1,000000000000000E+000	39	5,0520275E-002	3,9598069E-004	0	6,851754633730161E-005	0,0000000E+000	5,4075055E-002	-7,8627443E-001	1,3655983E+002	1,3654697E+002	1,8739624E+000	-6,0398370E-001	2,6414108E+002	2,6412640E+002	2,7843928E+000	7,8378553E-003	5,5932396E-005	7,8380546E-003	4,0886644E-001	4,316731338893678E-006
1,5847683E+004	1,2758157E+002	8,8302249E-001	1,2758463E+002	-3,9655143E-001	7,202549595414894E+000	1,4994779E+000	3,2263651E-002	1,1373198E+001	5,4479041E-004	1,000000000000000E+000	39	5,4742932E-002	4,2907154E-004	0	7,082618000725495E-005	0,0000000E+000	5,8618080E-002	-7,1718425E-001	1,3661610E+002	1,3660541E+002	1,7100099E+000	-5,6234807E-001	2,6419971E+002	2,6418698E+002	2,5930324E+000	7,8377472E-003	5,4246921E-005	7,8379354E-003	3,9655143E-001	2,308633669953348E-006
1,4121883E+004	1,2752791E+002	8,2927388E-001	1,2753060E+002	-3,7257117E-001	7,579542226652848E+000	1,4994799E+000	3,2351650E-002	1,3590316E+001	5,7464110E-004	1,000000000000000E+000	39	5,0901998E-002	3,9913555E-004	0	7,347767280133040E-005	0,0000000E+000	5,4546516E-002	-6,3223791E-001	1,3666164E+002	1,3665332E+002	1,5079803E+000	-5,0689191E-001	2,6419156E+002	2,6418121E+002	2,3372543E+000	7,8410897E-003	5,0988139E-005	7,8412555E-003	3,7257117E-001	2,651492794075443E-006
1,2590930E+004	1,2751713E+002	7,2000033E-001	1,2751916E+002	-3,2350591E-001	7,834549438761314E+000	1,4994918E+000	3,2338601E-002	1,7556166E+001	5,5968564E-004	1,000000000000000E+000	39	5,4312035E-002	4,2591276E-004	0	7,594259181045921E-005	0,0000000E+000	5,8176618E-002	-5,6712776E-001	1,3659280E+002	1,3658611E+002	1,3520072E+000	-4,4950166E-001	2,6411136E+002	2,6410324E+002	2,0720074E+000	7,8418339E-003	4,4277371E-005	7,8419587E-003	3,2350591E-001	2,464919009128816E-006
1,1217713E+004	1,2748155E+002	7,4819291E-001	1,2748375E+002	-3,3626673E-001	8,211559723335085E+000	1,4994853E+000	3,2393411E-002	1,8962790E+001	6,5316027E-004	1,000000000000000E+000	39	5,0756015E-002	3,9813714E-004	0	7,846395457752917E-005	0,0000000E+000	5,4378450E-002	-5,2513283E-001	1,3658221E+002	1,3657648E+002	1,2517991E+000	-4,3395349E-001	2,6406561E+002	2,6405804E+002	1,9999920E+000	7,8440020E-003	4,6036675E-005	7,8441370E-003	3,3626673E-001	2,521362767069963E-006
1,0002226E+004	1,2756107E+002	7,0711756E-001	1,2756303E+002	-3,1760815E-001	8,466523175447946E+000	1,4994773E+000	3,2309141E-002	2,2502558E+001	6,9145742E-004	1,000000000000000E+000	39	5,3134143E-002	4,1653245E-004	0	8,040349800024554E-005	0,0000000E+000	5,6928087E-002	-4,7355944E-001	1,3667143E+002	1,3666676E+002	1,1295999E+000	-3,9827168E-001	2,6423422E+002	2,6422784E+002	1,8367175E+000	7,8391414E-003	4,3455217E-005	7,8392616E-003	3,1760815E-001	1,939543422716368E-006
8,9166387E+003	1,2758089E+002	6,9248849E-001	1,2758276E+002	-3,1098920E-001	8,843517273344332E+000	1,4995275E+000	3,2262161E-002	2,5775457E+001	7,5935962E-004	1,000000000000000E+000	39	5,1387891E-002	4,0278083E-004	0	8,384760731839611E-005	0,0000000E+000	5,5066198E-002	-4,2006171E-001	1,3671504E+002	1,3671136E+002	1,0023118E+000	-3,6740988E-001	2,6429767E+002	2,6429224E+002	1,6948004E+000	7,8379335E-003	4,2543041E-005	7,8380490E-003	3,1098920E-001	3,444109318150563E-006
7,9424009E+003	1,2752921E+002	6,5753531E-001	1,2753090E+002	-2,9541206E-001	9,098537818790646E+000	1,4995401E+000	3,2243147E-002	3,0475386E+001	8,1013341E-004	1,000000000000000E+000	39	5,4264121E-002	4,2549783E-004	0	8,625342490519537E-005	0,0000000E+000	5,8146305E-002	-3,6902004E-001	1,3665477E+002	1,3665193E+002	8,8013464E-001	-3,3348706E-001	2,6418564E+002	2,6418115E+002	1,5376699E+000	7,8411326E-003	4,0428557E-005	7,8412369E-003	2,9541206E-001	2,405817586799262E-006
7,0794971E+003	1,2756709E+002	7,5114876E-001	1,2756930E+002	-3,3736882E-001	9,475523010041798E+000	1,4995338E+000	3,2149184E-002	2,9928968E+001	1,0376511E-003	1,000000000000000E+000	39	5,0680161E-002	3,9727552E-004	0	8,932351833468440E-005	0,0000000E+000	5,4255787E-002	-3,1152603E-001	1,3656967E+002	1,3656766E+002	7,4254680E-001	-3,2400712E-001	2,6413895E+002	2,6413474E+002	1,4936955E+000	7,8387409E-003	4,6156583E-005	7,8388769E-003	3,3736882E-001	3,070093429489036E-006
6,3093828E+003	1,2761180E+002	6,8574941E-001	1,2761364E+002	-3,0788824E-001	9,730556595459348E+000	1,4995418E+000	3,2073498E-002	3,6784752E+001	1,0621956E-003	1,000000000000000E+000	39	5,2844767E-002	4,1409966E-004	0	9,183640236180528E-005	0,0000000E+000	5,6582510E-002	-3,0685124E-001	1,3663983E+002	1,3663788E+002	7,3177993E-001	-3,0735198E-001	2,6425351E+002	2,6424969E+002	1,4175293E+000	7,8360401E-003	4,2108644E-005	7,8361528E-003	3,0788824E-001	2,512884027120881E-006
5,6227744E+003	1,2763499E+002	6,9872946E-001	1,2763690E+002	-3,1365889E-001	9,985569300915813E+000	1,4995311E+000	3,2191318E-002	4,0509830E+001	1,2140205E-003	1,000000000000000E+000	39	5,4753762E-002	4,2898065E-004	0	9,439008575073523E-005	0,0000000E+000	5,8656540E-002	-2,9327676E-001	1,3673470E+002	1,3673291E+002	6,9989336E-001	-3,0311713E-001	2,6437158E+002	2,6436789E+002	1,3986228E+000	7,8346077E-003	4,2890053E-005	7,8347251E-003	3,1365889E-001	2,553683388929946E-006
5,0103887E+003	1,2771485E+002	7,0606595E-001	1,2771680E+002	-3,1675398E-001	1,036252219884773E+001	1,4995348E+000	3,2223012E-002	4,4988697E+001	1,3749847E-003	1,000000000000000E+000	39	5,0653346E-002	3,9660675E-004	0	9,755971448940666E-005	0,0000000E+000	5,4228887E-002	-2,4888283E-001	1,3673213E+002	1,3673083E+002	5,9393859E-001	-2,8166151E-001	2,6444888E+002	2,6444568E+002	1,3000045E+000	7,8297043E-003	4,3286174E-005	7,8298235E-003	3,1675398E-001	3,169628738671434E-006
4,4655278E+003	1,2772295E+002	7,5304133E-001	1,2772517E+002	-3,3780608E-001	1,063311442502891E+001	1,4995546E+000	3,2048516E-002	4,7329132E+001	1,6451790E-003	1,000000000000000E+000	39	5,1943421E-002	4,0668115E-004	0	9,969631497974924E-005	0,0000000E+000	5,5584773E-002	-2,0483778E-001	1,3667900E+002	1,3667813E+002	4,8863921E-001	-2,6907048E-001	2,6440402E+002	2,6440109E+002	1,2416805E+000	7,8291744E-003	4,6160003E-005	7,8293104E-003	3,3780608E-001	2,136600490342571E-006
3,9796606E+003	1,2766347E+002	8,3420092E-001	1,2766619E+002	-3,7438676E-001	1,093221675921814E+001	1,4995514E+000	3,2153662E-002	4,7940598E+001	2,0468826E-003	1,000000000000000E+000	39	5,3035717E-002	4,1542493E-004	0	1,021427563798113E-004	0,0000000E+000	5,6774344E-002	-2,2115734E-001	1,3666571E+002	1,3666469E+002	5,2751791E-001	-2,9516363E-001	2,6433167E+002	2,6432816E+002	1,3617189E+000	7,8327600E-003	5,1182189E-005	7,8329276E-003	3,7438676E-001	2,446441400062100E-006
3,5480037E+003	1,2769160E+002	8,4693187E-001	1,2769441E+002	-3,8001648E-001	1,126393365502008E+001	1,4995600E+000	3,2157015E-002	5,2964832E+001	2,3299188E-003	1,000000000000000E+000	39	5,3964626E-002	4,2260758E-004	0	1,053738287057531E-004	0,0000000E+000	5,7750963E-002	-1,7393394E-001	1,3665387E+002	1,3665324E+002	4,1484225E-001	-2,7348283E-001	2,6434787E+002	2,6434485E+002	1,2617741E+000	7,8310240E-003	5,1940333E-005	7,8311963E-003	3,8001648E-001	3,231072325941782E-006
3,1630769E+003	1,2766562E+002	8,9463484E-001	1,2766875E+002	-4,0150169E-001	1,163167268583493E+001	1,4995540E+000	3,2069396E-002	5,6242493E+001	2,7617663E-003	1,000000000000000E+000	39	5,4737661E-002	4,2874750E-004	0	1,089869021757303E-004	0,0000000E+000	5,8592159E-002	-1,4451879E-001	1,3665889E+002	1,3665846E+002	3,4469828E-001	-2,6864004E-001	2,6432700E+002	2,6432410E+002	1,2393332E+000	7,8325784E-003	5,4887896E-005	7,8327702E-003	4,0150169E-001	3,613073469977180E-006
2,8175339E+003	1,2778156E+002	9,1765112E-001	1,2778485E+002	-4,1145712E-001	1,223762412795077E+001	1,4995453E+000	3,2066040E-002	6,1556419E+001	3,1744598E-003	1,000000000000000E+000	39	5,0543811E-002	3,9553837E-004	0	1,149517654129664E-004	0,0000000E+000	5,4104824E-002	-1,0376845E-001	1,3678780E+002	1,3678757E+002	2,4773639E-001	-2,5237772E-001	2,6457169E+002	2,6456912E+002	1,1653875E+000	7,8254519E-003	5,6197739E-005	7,8256540E-003	4,1145712E-001	5,964863237236073E-006
2,5124104E+003	1,2779127E+002	9,9480551E-001	1,2779514E+002	-4,4601643E-001	1,268365932246525E+001	1,4995475E+000	3,1945232E-002	6,3678284E+001	3,8586822E-003	1,000000000000000E+000	39	5,1032003E-002	3,9932661E-004	0	1,191004050878793E-004	0,0000000E+000	5,4594565E-002	-9,4331384E-002	1,3671657E+002	1,3671638E+002	2,2508913E-001	-2,6424310E-001	2,6451047E+002	2,6450766E+002	1,2198946E+000	7,8247860E-003	6,0912931E-005	7,8250235E-003	4,4601643E-001	4,148639674912881E-006
2,2492781E+003	1,2782140E+002	1,0616798E+000	1,2782581E+002	-4,7588569E-001	1,312997777032433E+001	1,4995631E+000	3,2058954E-002	6,6647430E+001	4,5976238E-003	1,000000000000000E+000	39	5,1404946E-002	4,0214841E-004	0	1,228791263553212E-004	0,0000000E+000	5,4966889E-002	-5,6724302E-002	1,3668309E+002	1,3668303E+002	1,3531977E-001	-2,5928697E-001	2,6450714E+002	2,6450443E+002	1,1969995E+000	7,8228759E-003	6,4976521E-005	7,8231459E-003	4,7588569E-001	3,778721267441948E-006
1,9956381E+003	1,2786573E+002	1,1756324E+000	1,2787113E+002	-5,2677816E-001	1,357579611150140E+001	1,4995420E+000	3,1928830E-002	6,7837029E+001	5,7340949E-003	1,000000000000000E+000	39	5,1747043E-002	4,0468120E-004	0	1,271211978048790E-004	0,0000000E+000	5,5338580E-002	-3,6577839E-002	1,3674611E+002	1,3674608E+002	8,7299220E-002	-2,7345756E-001	2,6461484E+002	2,6461182E+002	1,2629316E+000	7,8200428E-003	7,1899602E-005	7,8203734E-003	5,2677816E-001	4,242071449557755E-006
1,7782897E+003	1,2792648E+002	1,2636547E+000	1,2793272E+002	-5,6594795E-001	1,402208042601706E+001	1,4995530E+000	3,1888936E-002	7,0825432E+001	6,9100750E-003	1,000000000000000E+000	39	5,2025374E-002	4,0666197E-004	0	1,309877449171949E-004	0,0000000E+000	5,5594314E-002	-2,2825416E-002	1,3670891E+002	1,3670889E+002	5,4461911E-002	-2,8538096E-001	2,6463867E+002	2,6463538E+002	1,3181167E+000	7,8162272E-003	7,7208504E-005	7,8166081E-003	5,6594795E-001	3,866547112315948E-006
