EC-Lab ASCII FILE
Nb header lines : 70                          

Potentio Electrochemical Impedance Spectroscopy

Run on channel : 1 (SN 14323)
User : 
Electrode connection : CE to ground
Potential control : Ewe
Ewe ctrl range : min = -10,00 V, max = 10,00 V
Ewe,I filtering : 50 kHz
Safety Limits :
	Do not start on E overload
Channel : Floating
Acquisition started on : 03/26/2024 15:31:47.051
Technique started on : 03/26/2024 15:32:40.508
Loaded Setting File :  C:\Users\Operator\Documents\DCP2_rawdata\CV\2024-03-26\20240326_DCP2_JULE_Ni_W_130224_BCV_EIS_i_000.mps
Saved on :
	File : 20240326_DCP2_JULE_Ni_W_130224_BCV_EIS_i_004_02_PEIS_C01.mpr
	Directory : C:\Users\Operator\Documents\DCP2_rawdata\CV\2024-03-26\
	Host : 134.60.37.140
Device : VSP-300 (SN 0936)
Address : USB
EC-Lab for windows v11.41 (software)
Internet server v11.40 (firmware)
Command interpretor v11.41 (firmware)
Electrode material : 
Initial state : 
Electrolyte : 
Comments : 
Cable : standard
Electrode surface area : 0,001 cm²
Characteristic mass : 0,001 g
Equivalent Weight : 0,000 g/eq.
Density : 0,000 g/cm3
Volume (V) : 0,001 cm³
Record Ece
Text export
   Mode : Standard
   Time format : Elapsed
Cycle Definition : Charge/Discharge alternance
Mode                Single sine         
E (V)               1,4000              
vs.                 Ref                 
tE (h:m:s)          0:00:0,0000         
record              0                   
dI                  0,000               
unit dI             mA                  
dt (s)              0,000               
fi                  100,000             
unit fi             kHz                 
ff                  1,000               
unit ff             Hz                  
Nd                  20                  
Points              per decade          
spacing             Logarithmic         
Va (mV)             50,0                
pw                  0,10                
Na                  2                   
corr                0                   
E range min (V)     -10,000             
E range max (V)     10,000              
I Range             Auto                
Bandwidth           8                   
nc cycles           0                   
goto Ns'            0                   
nr cycles           0                   
inc. cycle          0                   

freq/Hz	Re(Z)/Ohm	-Im(Z)/Ohm	|Z|/Ohm	Phase(Z)/deg	time/s	<Ewe>/V	<I>/mA	Cs/µF	Cp/µF	cycle number	I Range	|Ewe|/V	|I|/A	Ns	(Q-Qo)/mA.h	<Ece>/V	|Ece|/V	Phase(Zce)/deg	|Zce|/Ohm	Re(Zce)/Ohm	-Im(Zce)/Ohm	Phase(Zwe-ce)/deg	|Zwe-ce|/Ohm	Re(Zwe-ce)/Ohm	-Im(Zwe-ce)/Ohm	Re(Y)/Ohm-1	Im(Y)/Ohm-1	|Y|/Ohm-1	Phase(Y)/deg	dq/mA.h	
1,0000371E+005	1,2854245E+002	6,1945400E+000	1,2869162E+002	-2,7589848E+000	5,345694333902793E+001	1,3994939E+000	-1,0659600E-001	2,5691822E-001	5,9526798E-004	1,000000000000000E+000	39	4,9480472E-002	3,8448867E-004	0	-4,379762967023999E-005	1,0438001E+000	5,2511718E-002	-4,6901984E+000	1,3657547E+002	1,3611813E+002	1,1167504E+001	-3,7532926E+000	2,6522946E+002	2,6466058E+002	1,7362045E+001	7,7615064E-003	3,7403184E-004	7,7705137E-003	2,7589848E+000	-4,379762967023999E-005
8,9129305E+004	1,2851422E+002	5,4558582E+000	1,2862997E+002	-2,4309378E+000	5,383395746356109E+001	1,3995061E+000	-6,5926552E-002	3,2729286E-001	5,8881426E-004	1,000000000000000E+000	39	5,0544538E-002	3,9294525E-004	0	-5,179119971129047E-005	1,0378158E+000	5,3681310E-002	-4,1614995E+000	1,3661270E+002	1,3625252E+002	9,9137135E+000	-3,3222620E+000	2,6521243E+002	2,6476672E+002	1,5369572E+001	7,7672414E-003	3,2974538E-004	7,7742375E-003	2,4309378E+000	-7,993570041050485E-006
7,9433273E+004	1,2852238E+002	4,7933307E+000	1,2861174E+002	-2,1358955E+000	5,421093598817242E+001	1,3994848E+000	-4,4461504E-002	4,1800383E-001	5,8062247E-004	1,000000000000000E+000	39	5,0682284E-002	3,9407198E-004	0	-5,711268345674358E-005	1,0411590E+000	5,3841010E-002	-3,7152207E+000	1,3662735E+002	1,3634023E+002	8,8530979E+000	-2,9494236E+000	2,6521393E+002	2,6486261E+002	1,3646429E+001	7,7699376E-003	2,8978515E-004	7,7753398E-003	2,1358955E+000	-5,321483745453104E-006
7,0794984E+004	1,2849884E+002	4,2421155E+000	1,2856885E+002	-1,8908113E+000	5,458793659275398E+001	1,3994777E+000	-3,1597167E-002	5,2995032E-001	5,7693734E-004	1,000000000000000E+000	39	5,0698463E-002	3,9432928E-004	0	-6,062046478923488E-005	1,0374342E+000	5,3891238E-002	-3,3184407E+000	1,3666557E+002	1,3643642E+002	7,9109335E+000	-2,6264179E+000	2,6521384E+002	2,6493524E+002	1,2153049E+001	7,7736992E-003	2,5663211E-004	7,7779340E-003	1,8908113E+000	-3,507781332491300E-006
6,3093828E+004	1,2854233E+002	3,7757368E+000	1,2859776E+002	-1,6824933E+000	5,496492450399091E+001	1,3994788E+000	-2,3801461E-002	6,6808474E-001	5,7592790E-004	1,000000000000000E+000	39	5,0701033E-002	3,9426060E-004	0	-6,293612282990621E-005	1,0385487E+000	5,3890534E-002	-2,9626536E+000	1,3668759E+002	1,3650490E+002	7,0647011E+000	-2,3420932E+000	2,6526883E+002	2,6504724E+002	1,0840438E+001	7,7728326E-003	2,2831523E-004	7,7761849E-003	1,6824933E+000	-2,315658040671331E-006
5,6237012E+004	1,2852382E+002	3,3431523E+000	1,2856729E+002	-1,4900377E+000	5,534196724189678E+001	1,3994846E+000	-1,8391671E-002	8,4652883E-001	5,7239138E-004	1,000000000000000E+000	39	5,0681014E-002	3,9419835E-004	0	-6,444231364960757E-005	1,0317553E+000	5,3915195E-002	-2,6145649E+000	1,3677174E+002	1,3662936E+002	6,2391071E+000	-2,0696871E+000	2,6532629E+002	2,6515320E+002	9,5822592E+000	7,7753980E-003	2,0225310E-004	7,7780280E-003	1,4900377E+000	-1,506190819701358E-006
5,0122477E+004	1,2848607E+002	2,9248402E+000	1,2851935E+002	-1,3040485E+000	5,571896005980670E+001	1,3994865E+000	-1,4787999E-002	1,0856390E+000	5,6228013E-004	1,000000000000000E+000	39	5,0674923E-002	3,9429803E-004	0	-6,664122291251421E-005	1,0687215E+000	5,3876840E-002	-2,3358223E+000	1,3663989E+002	1,3652637E+002	5,5689640E+000	-1,8357348E+000	2,6514853E+002	2,6501245E+002	8,4938040E+000	7,7789142E-003	1,7707821E-004	7,7809296E-003	1,3040485E+000	-2,198909262906648E-006
4,4666715E+004	1,2848112E+002	2,5656705E+000	1,2850674E+002	-1,1440011E+000	5,609594375768211E+001	1,3994797E+000	-1,2116102E-002	1,3887857E+000	5,5358605E-004	1,000000000000000E+000	39	5,0652552E-002	3,9416261E-004	0	-6,771280038830203E-005	1,0400982E+000	5,3854380E-002	-2,0571165E+000	1,3662985E+002	1,3654179E+002	4,9044304E+000	-1,6145470E+000	2,6512817E+002	2,6502292E+002	7,4701009E+000	7,7801417E-003	1,5536352E-004	7,7816928E-003	1,1440011E+000	-1,071577475787814E-006
3,9814063E+004	1,2849586E+002	2,2327650E+000	1,2851526E+002	-9,9548054E-001	5,647294705559034E+001	1,3994793E+000	-1,0153007E-002	1,7903610E+000	5,4040243E-004	1,000000000000000E+000	39	5,0641611E-002	3,9405137E-004	0	-6,883314314850658E-005	1,0392356E+000	5,3870983E-002	-1,7910594E+000	1,3671056E+002	1,3664377E+002	4,2728601E+000	-1,4055614E+000	2,6521945E+002	2,6513965E+002	6,5056248E+000	7,7800029E-003	1,3518658E-004	7,7811773E-003	9,9548054E-001	-1,120342760204554E-006
3,5481000E+004	1,2844499E+002	1,9608222E+000	1,2845996E+002	-8,7460095E-001	5,684995499352226E+001	1,3994573E+000	-8,7227253E-003	2,2876313E+000	5,3299963E-004	1,000000000000000E+000	39	5,0657194E-002	3,9434229E-004	0	-6,901111594612788E-005	1,0391746E+000	5,3909693E-002	-1,6163212E+000	1,3670787E+002	1,3665347E+002	3,8560348E+000	-1,2569968E+000	2,6516226E+002	2,6509845E+002	5,8168569E+000	7,7836197E-003	1,1882359E-004	7,7845268E-003	8,7460095E-001	-1,779727976213013E-007
3,1621143E+004	1,2842268E+002	1,7063267E+000	1,2843402E+002	-7,6123285E-001	5,722696511808317E+001	1,3995051E+000	-7,5899819E-003	2,9497173E+000	5,2064849E-004	1,000000000000000E+000	39	5,0631586E-002	3,9422253E-004	0	-6,898058046674124E-005	1,0357550E+000	5,3894650E-002	-1,4289515E+000	1,3671124E+002	1,3666873E+002	3,4092126E+000	-1,1055146E+000	2,6514078E+002	2,6509143E+002	5,1155396E+000	7,7854116E-003	1,0344322E-004	7,7860989E-003	7,6123285E-001	3,053547938664642E-008
2,8188094E+004	1,2836482E+002	1,5289764E+000	1,2837393E+002	-6,8242800E-001	5,760393348266371E+001	1,3994849E+000	-6,5724538E-003	3,6927817E+000	5,2384345E-004	1,000000000000000E+000	39	5,0589379E-002	3,9407829E-004	0	-6,901234770260311E-005	1,0371518E+000	5,3883165E-002	-1,2690725E+000	1,3673213E+002	1,3669859E+002	3,0282998E+000	-9,8499817E-001	2,6510260E+002	2,6506342E+002	4,5572762E+000	7,7891909E-003	9,2778449E-005	7,7897436E-003	6,8242800E-001	-3,176723586187900E-008
2,5116906E+004	1,2827086E+002	1,3308376E+000	1,2827776E+002	-5,9443468E-001	5,798095723387087E+001	1,3994731E+000	-5,8580581E-003	4,7613368E+000	5,1247934E-004	1,000000000000000E+000	39	5,0615478E-002	3,9457719E-004	0	-6,872333749978700E-005	0,0000000E+000	5,3907380E-002	-1,1342733E+000	1,3662062E+002	1,3659386E+002	2,7044749E+000	-8,7285501E-001	2,6489545E+002	2,6486472E+002	4,0353127E+000	7,7951644E-003	8,0876503E-005	7,7955839E-003	5,9443468E-001	2,890102028161142E-007
2,2389031E+004	1,2825734E+002	1,1158327E+000	1,2826219E+002	-4,9845797E-001	5,835794959845953E+001	1,3994837E+000	-5,1910160E-003	6,3706794E+000	4,8215489E-004	1,000000000000000E+000	39	5,0564572E-002	3,9422821E-004	0	-6,998423769752197E-005	0,0000000E+000	5,3864639E-002	-1,0237148E+000	1,3663315E+002	1,3661134E+002	2,4411211E+000	-7,6938576E-001	2,6489258E+002	2,6486868E+002	3,5569539E+000	7,7962345E-003	6,7826870E-005	7,7965297E-003	4,9845797E-001	-1,260900197734969E-006
1,9948781E+004	1,2825992E+002	1,0514290E+000	1,2826422E+002	-4,6967989E-001	5,873495854972862E+001	1,3994641E+000	-4,7193510E-003	7,5879383E+000	5,0988549E-004	1,000000000000000E+000	39	5,0549023E-002	3,9410073E-004	0	-6,982437758169544E-005	0,0000000E+000	5,3812850E-002	-9,2270565E-001	1,3654593E+002	1,3652823E+002	2,1988750E+000	-7,0327675E-001	2,6480811E+002	2,6478815E+002	3,2503040E+000	7,7961441E-003	6,3910018E-005	7,7964063E-003	4,6967989E-001	1,598601158265265E-007
1,7786891E+004	1,2821219E+002	9,7985274E-001	1,2821593E+002	-4,3787050E-001	5,911194096761756E+001	1,3994631E+000	-4,1723689E-003	9,1318607E+000	5,3333119E-004	1,000000000000000E+000	39	5,0529048E-002	3,9409337E-004	0	-6,975604518672077E-005	0,0000000E+000	5,3842541E-002	-7,7435464E-001	1,3662383E+002	1,3661134E+002	1,8464199E+000	-6,1145377E-001	2,6483862E+002	2,6482355E+002	2,8262727E+000	7,7991155E-003	5,9604201E-005	7,7993432E-003	4,3787050E-001	6,833239497467682E-008
1,5847683E+004	1,2812312E+002	9,1527301E-001	1,2812639E+002	-4,0929684E-001	5,936693073972128E+001	1,3994613E+000	-3,9285193E-003	1,0972452E+001	5,5992242E-004	1,000000000000000E+000	39	5,4717932E-002	4,2706216E-004	0	-6,986685649870358E-005	0,0000000E+000	5,8335572E-002	-7,2520602E-001	1,3659738E+002	1,3658644E+002	1,7288986E+000	-5,7230586E-001	2,6472278E+002	2,6470956E+002	2,6441717E+000	7,8045940E-003	5,5753673E-005	7,8047933E-003	4,0929684E-001	-1,108113119828165E-007
1,4121883E+004	1,2814389E+002	8,5237145E-001	1,2814673E+002	-3,8110724E-001	5,974393123760819E+001	1,3994651E+000	-3,6895177E-003	1,3222045E+001	5,8498047E-004	1,000000000000000E+000	39	5,0873317E-002	3,9699272E-004	0	-7,038024628691751E-005	0,0000000E+000	5,4245453E-002	-6,4878434E-001	1,3664093E+002	1,3663217E+002	1,5472100E+000	-5,1923925E-001	2,6478693E+002	2,6477606E+002	2,3995814E+000	7,8033819E-003	5,1905554E-005	7,8035546E-003	3,8110724E-001	-5,133897882139265E-007
1,2590930E+004	1,2814047E+002	7,7822602E-001	1,2814284E+002	-3,4796590E-001	5,999894578306703E+001	1,3994735E+000	-3,4441766E-003	1,6242640E+001	5,9907255E-004	1,000000000000000E+000	39	5,4258101E-002	4,2341891E-004	0	-7,023411907619448E-005	0,0000000E+000	5,7844426E-002	-5,8296931E-001	1,3661276E+002	1,3660570E+002	1,3899745E+000	-4,6922669E-001	2,6475504E+002	2,6474615E+002	2,1682005E+000	7,8036478E-003	4,7393311E-005	7,8037917E-003	3,4796590E-001	1,461272107230294E-007
1,1217713E+004	1,2807062E+002	7,4259979E-001	1,2807277E+002	-3,3221793E-001	6,037595065432834E+001	1,3994762E+000	-3,1898885E-003	1,9105614E+001	6,4232829E-004	1,000000000000000E+000	39	5,0705172E-002	3,9590910E-004	0	-7,004582756108721E-005	0,0000000E+000	5,4065764E-002	-5,0655115E-001	1,3656105E+002	1,3655571E+002	1,2073185E+000	-4,2218044E-001	2,6463351E+002	2,6462634E+002	1,9499183E+000	7,8079295E-003	4,5273198E-005	7,8080609E-003	3,3221793E-001	1,882915151072659E-007
1,0002226E+004	1,2810748E+002	6,8015337E-001	1,2810928E+002	-3,0419418E-001	6,063096306641819E+001	1,3994935E+000	-3,0120341E-003	2,3394653E+001	6,5943069E-004	1,000000000000000E+000	39	5,3061131E-002	4,1418648E-004	0	-7,054288448331256E-005	0,0000000E+000	5,6595854E-002	-4,6394259E-001	1,3664342E+002	1,3663893E+002	1,1064341E+000	-3,8664311E-001	2,6475244E+002	2,6474640E+002	1,7865875E+000	7,8057256E-003	4,1442469E-005	7,8058355E-003	3,0419418E-001	-4,970569222253481E-007
8,9166387E+003	1,2810970E+002	6,7813277E-001	1,2811150E+002	-3,0328524E-001	6,100795956433285E+001	1,3995259E+000	-2,5627417E-003	2,6321112E+001	7,3749229E-004	1,000000000000000E+000	39	5,1402975E-002	4,0123626E-004	0	-7,094360231345087E-005	0,0000000E+000	5,4813117E-002	-4,2856565E-001	1,3661058E+002	1,3660677E+002	1,0218215E+000	-3,6793658E-001	2,6472192E+002	2,6471646E+002	1,6999543E+000	7,8055914E-003	4,1317926E-005	7,8057009E-003	3,0328524E-001	-4,007178301383035E-007
7,9424009E+003	1,2811542E+002	7,0429254E-001	1,2811736E+002	-3,1497055E-001	6,126296744309366E+001	1,3995155E+000	-2,5966710E-003	2,8452160E+001	8,5981592E-004	1,000000000000000E+000	39	5,4269575E-002	4,2359266E-004	0	-7,147848681470512E-005	0,0000000E+000	5,7854727E-002	-3,8247666E-001	1,3658104E+002	1,3657800E+002	9,1173685E-001	-3,4980285E-001	2,6469836E+002	2,6469342E+002	1,6160294E+000	7,8052259E-003	4,2907890E-005	7,8053437E-003	3,1497055E-001	-5,348845012542540E-007
7,0794971E+003	1,2812422E+002	6,6068846E-001	1,2812593E+002	-2,9545015E-001	6,163996199436951E+001	1,3995289E+000	-2,4236664E-003	3,4026791E+001	9,0477453E-004	1,000000000000000E+000	39	5,0711531E-002	3,9579446E-004	0	-7,186607097066007E-005	0,0000000E+000	5,4079961E-002	-3,2497290E-001	1,3663647E+002	1,3663428E+002	7,7497703E-001	-3,1068605E-001	2,6476239E+002	2,6475848E+002	1,4356655E+000	7,8047174E-003	4,0245992E-005	7,8048212E-003	2,9545015E-001	-3,875841559549531E-007
6,3093828E+003	1,2814427E+002	6,5677017E-001	1,2814595E+002	-2,9365206E-001	6,189493677980499E+001	1,3995249E+000	-2,3103165E-003	3,8407837E+001	1,0088739E-003	1,000000000000000E+000	39	5,2842841E-002	4,1236452E-004	0	-7,184053315861255E-005	0,0000000E+000	5,6345843E-002	-2,8924057E-001	1,3664085E+002	1,3663911E+002	6,8978751E-001	-2,9137555E-001	2,6478680E+002	2,6478339E+002	1,3465576E+000	7,8034997E-003	3,9994811E-005	7,8036021E-003	2,9365206E-001	2,553781204752824E-008
5,6227744E+003	1,2817278E+002	7,4544448E-001	1,2817494E+002	-3,3322477E-001	6,214993687189417E+001	1,3995351E+000	-2,2435749E-003	3,7971188E+001	1,2843356E-003	1,000000000000000E+000	39	5,4763481E-002	4,2725573E-004	0	-7,186031266030235E-005	0,0000000E+000	5,8363371E-002	-2,7179277E-001	1,3660056E+002	1,3659901E+002	6,4798671E-001	-3,0153131E-001	2,6477545E+002	2,6477179E+002	1,3934312E+000	7,8017050E-003	4,5374207E-005	7,8018368E-003	3,3322477E-001	-1,977950168980021E-008
5,0103887E+003	1,2814418E+002	7,3633695E-001	1,2814630E+002	-3,2922706E-001	6,252693963650381E+001	1,3995296E+000	-2,1429043E-003	4,3139202E+001	1,4243383E-003	1,000000000000000E+000	39	5,0618540E-002	3,9500586E-004	0	-7,185354296384483E-005	0,0000000E+000	5,3987052E-002	-2,3379199E-001	1,3667406E+002	1,3667291E+002	5,5768871E-001	-2,7997294E-001	2,6482025E+002	2,6481708E+002	1,2940257E+000	7,8034517E-003	4,4839879E-005	7,8035807E-003	3,2922706E-001	6,769696457516227E-009
4,4655278E+003	1,2819699E+002	7,8694528E-001	1,2819940E+002	-3,5170934E-001	6,279748855601065E+001	1,3995299E+000	-1,9762369E-003	4,5290051E+001	1,7065534E-003	1,000000000000000E+000	39	5,1914051E-002	4,0494770E-004	0	-7,235524405997906E-005	0,0000000E+000	5,5353492E-002	-2,2721630E-001	1,3669295E+002	1,3669188E+002	5,4207808E-001	-2,8746694E-001	2,6489218E+002	2,6488885E+002	1,3290234E+000	7,8002014E-003	4,7882029E-005	7,8003486E-003	3,5170934E-001	-5,017010961342331E-007
3,9796606E+003	1,2823779E+002	7,9665548E-001	1,2824026E+002	-3,5593572E-001	6,309662158356514E+001	1,3995453E+000	-1,9904042E-003	5,0199978E+001	1,9372953E-003	1,000000000000000E+000	39	5,3033914E-002	4,1355120E-004	0	-7,274034598560926E-005	0,0000000E+000	5,6535162E-002	-1,8523701E-001	1,3670656E+002	1,3670584E+002	4,4197094E-001	-2,6785907E-001	2,6494653E+002	2,6494363E+002	1,2386265E+000	7,7977125E-003	4,8441965E-005	7,7978629E-003	3,5593572E-001	-3,851019256301985E-007
3,5480037E+003	1,2825700E+002	8,5261381E-001	1,2825984E+002	-3,8087940E-001	6,342836863931734E+001	1,3995520E+000	-1,9128497E-003	5,2611866E+001	2,3249148E-003	1,000000000000000E+000	39	5,3946123E-002	4,2060023E-004	0	-7,289466725321917E-005	0,0000000E+000	5,7457224E-002	-1,6830239E-001	1,3660768E+002	1,3660709E+002	4,0127504E-001	-2,7124101E-001	2,6486703E+002	2,6486407E+002	1,2538888E+000	7,7965003E-003	5,1828778E-005	7,7966726E-003	3,8087940E-001	-1,543212676099125E-007
3,1630769E+003	1,2827202E+002	8,8434577E-001	1,2827507E+002	-3,9500800E-001	6,379603807014792E+001	1,3995472E+000	-1,7275398E-003	5,6896854E+001	2,7042569E-003	1,000000000000000E+000	39	5,4705568E-002	4,2647077E-004	0	-7,299367775537798E-005	0,0000000E+000	5,8313053E-002	-1,5497538E-001	1,3673399E+002	1,3673349E+002	3,6984184E-001	-2,7116087E-001	2,6500845E+002	2,6500549E+002	1,2541876E+000	7,7955616E-003	5,3744934E-005	7,7957469E-003	3,9500800E-001	-9,901050215880810E-008
2,8175339E+003	1,2827533E+002	9,9208832E-001	1,2827916E+002	-4,4311982E-001	6,440203476559691E+001	1,3995595E+000	-1,4471522E-003	5,6937794E+001	3,4055645E-003	1,000000000000000E+000	39	5,0545581E-002	3,9402800E-004	0	-7,360566060046161E-005	0,0000000E+000	5,3850211E-002	-1,4602678E-001	1,3666595E+002	1,3666551E+002	3,4831303E-001	-2,8987107E-001	2,6494424E+002	2,6494086E+002	1,3404014E+000	7,7952654E-003	6,0289007E-005	7,7954987E-003	4,4311982E-001	-6,119828450836239E-007
2,5124104E+003	1,2825745E+002	9,9533260E-001	1,2826131E+002	-4,4463083E-001	6,484812396010966E+001	1,3995514E+000	-1,4132217E-003	6,3644562E+001	3,8327144E-003	1,000000000000000E+000	39	5,1016621E-002	3,9775536E-004	0	-7,349885222024426E-005	0,0000000E+000	5,4349978E-002	-1,3087468E-001	1,3664172E+002	1,3664137E+002	3,1211594E-001	-2,8278977E-001	2,6490204E+002	2,6489880E+002	1,3074485E+000	7,7963490E-003	6,0503004E-005	7,7965837E-003	4,4463083E-001	1,068083802173409E-007
2,2492781E+003	1,2832347E+002	1,0498834E+000	1,2832776E+002	-4,6875715E-001	6,529431920795469E+001	1,3995411E+000	-1,4385759E-003	6,7396278E+001	4,5110416E-003	1,000000000000000E+000	39	5,1390771E-002	4,0046495E-004	0	-7,358779077796336E-005	0,0000000E+000	5,4770108E-002	-8,5163191E-002	1,3676630E+002	1,3676614E+002	2,0328636E-001	-2,7085486E-001	2,6509256E+002	2,6508960E+002	1,2531698E+000	7,7922856E-003	6,3752879E-005	7,7925464E-003	4,6875715E-001	-8,893855771909551E-008
1,9956381E+003	1,2835652E+002	1,2042768E+000	1,2836217E+002	-5,3754926E-001	6,574022672248248E+001	1,3995508E+000	-1,2170987E-003	6,6223488E+001	5,8289533E-003	1,000000000000000E+000	39	5,1716514E-002	4,0289530E-004	0	-7,352530574345716E-005	0,0000000E+000	5,5108279E-002	-7,9885334E-002	1,3678064E+002	1,3678050E+002	1,9070800E-001	-3,0145171E-001	2,6514069E+002	2,6513702E+002	1,3949848E+000	7,7901147E-003	7,3089032E-005	7,7904575E-003	5,3754926E-001	6,248503450619828E-008
1,7782897E+003	1,2841806E+002	1,2332150E+000	1,2842398E+002	-5,5020171E-001	6,618651599698933E+001	1,3995534E+000	-1,2144879E-003	7,2573631E+001	6,6921269E-003	1,000000000000000E+000	39	5,1983327E-002	4,0477898E-004	0	-7,399856350398881E-005	0,0000000E+000	5,5333167E-002	-5,0673302E-002	1,3669971E+002	1,3669965E+002	1,2089939E-001	-2,9264122E-001	2,6512115E+002	2,6511771E+002	1,3541144E+000	7,7863485E-003	7,4773292E-005	7,7867075E-003	5,5020171E-001	-4,732577605316490E-007
